[Configuration]
Relay_control_source_Left=COM3
Relay_control_source_Baud_Left=9600
ESD_NUM_Left=10
Scanning_interval=500
Scanning_timeout=3
Relay_control_Cell_police=COM2
Relay_control_Cell_police_Baud=9600
Alarm_detection=1000
Monitor=Î´Ñ¡Ôñ
t_Line_body=Î´Ñ¡Ôñ
ESD_NUM_right=11
Relay_control_source_right=COM4
Relay_control_source_Baud_right=9600
[ESDConfig_Left]
ESD0001=0001,01 02 00 00 00 02 F9 CB,01 02 01 03 E1 89,01 02 01 02 20 49,01 02 01 00 A1 88
ESD0002=0002,02 02 00 00 00 02 F9 F8,02 02 01 03 E1 CD,02 02 01 02 20 0D,02 02 01 00 A1 CC
ESD0003=0003,03 04 00 00 00 02 70 29,03 02 01 03 E0 31,03 02 01 02 21 F1,03 02 01 00 A0 30
ESD0004=0004,04 02 00 00 00 02 F9 9E,04 02 01 03 E1 45,04 02 01 02 20 85,04 02 01 00 A1 44
ESD0005=0005,05 02 00 00 00 02 F8 4F,05 02 01 03 E0 B9,05 02 01 02 21 79,05 02 01 00 A0 B8
ESD0006=0006,06 02 00 00 00 02 F8 7C,06 02 01 03 E0 FD,06 02 01 02 21 3D,06 02 01 00 A0 FC
ESD0007=0007,07 02 00 00 00 02 F9 AD,07 02 01 03 E1 01,07 02 01 02 20 C1,07 02 01 00 A1 00
ESD0008=0008,08 02 00 00 00 02 F9 52,08 02 01 03 E2 15,08 02 01 02 23 D5,08 02 01 00 A2 14
ESD0009=0009,09 02 00 00 00 02 F8 83,09 02 01 03 E3 E9,09 02 01 02 22 29,09 02 01 00 A3 E8
ESD0010=0010,0A 02 00 00 00 02 F8 B0,0A 02 01 03 E3 AD,0A 02 01 02 22 6D,0A 02 01 00 A3 AC
ESD0011=0011,0B 02 00 00 00 02 F9 61,0B 02 01 03 E2 51,0B 02 01 02 23 91,0B 02 01 00 A2 50
ESD0012=0012,0C 02 00 00 00 02 F8 D6,0C 02 01 03 E3 25,0C 02 01 02 22 E5,0C 02 01 00 A3 24
ESD0013=0013,0D 02 00 00 00 02 F9 07,0D 02 01 03 E2 D9,0D 02 01 02 23 19,0D 02 01 00 A2 D8
ESD0014=0014,0E 02 00 00 00 02 F9 34,0E 02 01 03 E2 9D,0E 02 01 02 23 5D,0E 02 01 00 A2 9C
ESD0015=0015,0F 02 00 00 00 02 F8 E5,0F 02 01 03 E3 61,0F 02 01 02 22 A1,0F 02 01 00 A3 60
ESD0016=0016,10 02 00 00 00 02 FA 8A,10 02 01 03 E4 B5,10 02 01 02 25 75,10 02 01 00 A4 B4
ESD0017=0017,11 02 00 00 00 02 FB 5B,11 02 01 03 E5 49,11 02 01 02 24 89,11 02 01 00 A5 48
ESD0018=0018,12 02 00 00 00 02 FB 68,12 02 01 03 E5 0D,12 02 01 02 24 CD,12 02 01 00 A5 0C
ESD0019=0019,13 02 00 00 00 02 FA B9,13 02 01 03 E4 F1,13 02 01 02 25 31,13 02 01 00 A4 F0
ESD0020=0020,14 02 00 00 00 02 FB 0E,14 02 01 03 E5 85,14 02 01 02 24 45,14 02 01 00 A5 84
ESD0021=0021,15 02 00 00 00 02 FA DF,15 02 01 03 E4 79,15 02 01 02 25 B9,15 02 01 00 A4 78
ESD0022=0022,16 02 00 00 00 02 FA EC,16 02 01 03 E4 3D,16 02 01 02 25 FD,16 02 01 00 A4 3C
ESD0023=0023,17 02 00 00 00 02 FB 3D,17 02 01 03 E5 C1,17 02 01 02 24 01,17 02 01 00 A5 C0
ESD0024=0024,18 02 00 00 00 02 FB C2,18 02 01 03 E6 D5,18 02 01 02 27 15,18 02 01 00 A6 D4
ESD0025=0025,19 02 00 00 00 02 FA 13,19 02 01 03 E7 29,19 02 01 02 26 E9,19 02 01 00 A7 28
ESD0026=0026,1A 02 00 00 00 02 FA 20,1A 02 01 03 E7 6D,1A 02 01 02 26 AD,1A 02 01 00 A7 6C
ESD0027=0027,1B 02 00 00 00 02 FB F1,1B 02 01 03 E6 91,1B 02 01 02 27 51,1B 02 01 00 A6 90
ESD0028=0028,1C 02 00 00 00 02 FA 46,1C 02 01 03 E7 E5,1C 02 01 02 26 25,1C 02 01 00 A7 E4
ESD0029=0029,1D 02 00 00 00 02 FB 97,1D 02 01 03 E6 19,1D 02 01 02 27 D9,1D 02 01 00 A6 18
ESD0030=0030,1E 02 00 00 00 02 FB A4,1E 02 01 03 E6 5D,1E 02 01 02 27 9D,1E 02 01 00 A6 5C
[Connect]
server=10.114.109.235,1433
Table=tab_ESD_MonitorDB
Quantity_equipment=3
[ESDConfig_right]
ESD0001=0001,01 02 00 00 00 02 F9 CB,01 02 01 03 E1 89,01 02 01 02 20 49,01 02 01 00 A1 88
ESD0002=0002,02 02 00 00 00 02 F9 F8,02 02 01 03 E1 CD,02 02 01 02 20 0D,02 02 01 00 A1 CC
ESD0003=0003,03 04 00 00 00 02 70 29,03 02 01 03 E0 31,03 02 01 02 21 F1,03 02 01 00 A0 30
ESD0004=0004,04 02 00 00 00 02 F9 9E,04 02 01 03 E1 45,04 02 01 02 20 85,04 02 01 00 A1 44
ESD0005=0005,05 02 00 00 00 02 F8 4F,05 02 01 03 E0 B9,05 02 01 02 21 79,05 02 01 00 A0 B8
ESD0006=0006,06 02 00 00 00 02 F8 7C,06 02 01 03 E0 FD,06 02 01 02 21 3D,06 02 01 00 A0 FC
ESD0007=0007,07 02 00 00 00 02 F9 AD,07 02 01 03 E1 01,07 02 01 02 20 C1,07 02 01 00 A1 00
ESD0008=0008,08 02 00 00 00 02 F9 52,08 02 01 03 E2 15,08 02 01 02 23 D5,08 02 01 00 A2 14
ESD0009=0009,09 02 00 00 00 02 F8 83,09 02 01 03 E3 E9,09 02 01 02 22 29,09 02 01 00 A3 E8
ESD0010=0010,0A 02 00 00 00 02 F8 B0,0A 02 01 03 E3 AD,0A 02 01 02 22 6D,0A 02 01 00 A3 AC
ESD0011=0011,0B 02 00 00 00 02 F9 61,0B 02 01 03 E2 51,0B 02 01 02 23 91,0B 02 01 00 A2 50
ESD0012=0012,0C 02 00 00 00 02 F8 D6,0C 02 01 03 E3 25,0C 02 01 02 22 E5,0C 02 01 00 A3 24
ESD0013=0013,0D 02 00 00 00 02 F9 07,0D 02 01 03 E2 D9,0D 02 01 02 23 19,0D 02 01 00 A2 D8
ESD0014=0014,0E 02 00 00 00 02 F9 34,0E 02 01 03 E2 9D,0E 02 01 02 23 5D,0E 02 01 00 A2 9C
ESD0015=0015,0F 02 00 00 00 02 F8 E5,0F 02 01 03 E3 61,0F 02 01 02 22 A1,0F 02 01 00 A3 60
ESD0016=0016,10 02 00 00 00 02 FA 8A,10 02 01 03 E4 B5,10 02 01 02 25 75,10 02 01 00 A4 B4
ESD0017=0017,11 02 00 00 00 02 FB 5B,11 02 01 03 E5 49,11 02 01 02 24 89,11 02 01 00 A5 48
ESD0018=0018,12 02 00 00 00 02 FB 68,12 02 01 03 E5 0D,12 02 01 02 24 CD,12 02 01 00 A5 0C
ESD0019=0019,13 02 00 00 00 02 FA B9,13 02 01 03 E4 F1,13 02 01 02 25 31,13 02 01 00 A4 F0
ESD0020=0020,14 02 00 00 00 02 FB 0E,14 02 01 03 E5 85,14 02 01 02 24 45,14 02 01 00 A5 84
ESD0021=0021,15 02 00 00 00 02 FA DF,15 02 01 03 E4 79,15 02 01 02 25 B9,15 02 01 00 A4 78
ESD0022=0022,16 02 00 00 00 02 FA EC,16 02 01 03 E4 3D,16 02 01 02 25 FD,16 02 01 00 A4 3C
ESD0023=0023,17 02 00 00 00 02 FB 3D,17 02 01 03 E5 C1,17 02 01 02 24 01,17 02 01 00 A5 C0
ESD0024=0024,18 02 00 00 00 02 FB C2,18 02 01 03 E6 D5,18 02 01 02 27 15,18 02 01 00 A6 D4
ESD0025=0025,19 02 00 00 00 02 FA 13,19 02 01 03 E7 29,19 02 01 02 26 E9,19 02 01 00 A7 28
ESD0026=0026,1A 02 00 00 00 02 FA 20,1A 02 01 03 E7 6D,1A 02 01 02 26 AD,1A 02 01 00 A7 6C
ESD0027=0027,1B 02 00 00 00 02 FB F1,1B 02 01 03 E6 91,1B 02 01 02 27 51,1B 02 01 00 A6 90
ESD0028=0028,1C 02 00 00 00 02 FA 46,1C 02 01 03 E7 E5,1C 02 01 02 26 25,1C 02 01 00 A7 E4
ESD0029=0029,1D 02 00 00 00 02 FB 97,1D 02 01 03 E6 19,1D 02 01 02 27 D9,1D 02 01 00 A6 18
ESD0030=0030,1E 02 00 00 00 02 FB A4,1E 02 01 03 E6 5D,1E 02 01 02 27 9D,1E 02 01 00 A6 5C
[ESDEnable_right]
ESDB-001=True
ESDB-007=False
ESDB-013=True
ESDB-002=True
ESDB-006=False
[ESDEnable_Left]
ESDA-005=False
ESDA-009=True
ESDA-013=True
ESDA-007=False
ESDA-011=True
ESDA-002=True
ESDA-015=True
ESDA-017=True
ESDA-003=False
ESDA-004=False
ESDA-008=False
[Submission]
RetryCount=3
[Device]
Num=3
Device1=1,ÑïÉùÆ÷,00 00,B
Device2=2,ÑïÉùÆ÷,00 26,B
Device4=
Device5=
Device6=
Device7=
Device3=3,TTK-2Ëø¸½»ú,00 42,B
